Questionable use of curly braces in ".model sir870adp vdmos(rg=3 vto=2.9 rd=3.2m rs=1.5m rb={m} kp=100 mtriode=1.85 cgdmax=1.4n cgdmin=70p cgs=2.9n cjo=3.6n m=.4 a=.7 vj=.7 lambda=20m is=3p ksubthres=.08 mfg=siliconix vds=100 ron=5.5m qg=53.5n)"
    Error: undefined symbol in: "[m]"
Circuit: * C:\Users\CheeLoong\Github\ElectricalEngineering\LTSpice\ECE331\Lab1\Lab1_1_3_Soon_Wang.asc

Model "ald1101": Oxide thickness thinner than recommended for a level 2 MOSFET.
Instance "m1": Length shorter than recommended for a level 2 MOSFET.
Direct Newton iteration for .op point succeeded.
Semiconductor Device Operating Points:
                        --- MOSFET Transistors ---
Name:          m1
Model:       ald1101
Id:          8.45e-04
Vgs:         1.30e+00
Vds:         3.17e+00
Vbs:         0.00e+00
Vth:         7.11e-01
Vdsat:       4.09e-01
Gm:          2.68e-03
Gds:         9.70e-06
Gmb:         1.29e-03
Cbd:         0.00e+00
Cbs:         0.00e+00
Cgsov:       1.59e-12
Cgdov:       1.59e-12
Cgbov:       0.00e+00
Cgs:         3.17e-12
Cgd:         0.00e+00
Cgb:         0.00e+00



Date: Wed Oct 05 12:49:49 2016
Total elapsed time: 0.056 seconds.

tnom = 27
temp = 27
method = trap
totiter = 4
traniter = 0
tranpoints = 0
accept = 0
rejected = 0
matrix size = 7
fillins = 0
solver = Normal
Matrix Compiler1: 214 bytes object code size
Matrix Compiler2: 487 bytes object code size

